
T82F8 015:000 SEGGER J-Link V6.30h Log File (0001ms, 0025ms total)
T82F8 015:000 DLL Compiled: Mar 16 2018 18:02:51 (0001ms, 0025ms total)
T82F8 015:000 Logging started @ 2018-12-24 16:00 (0001ms, 0025ms total)
T82F8 015:001 JLINK_SetWarnOutHandler(...) (0000ms, 0025ms total)
T82F8 015:001 JLINK_OpenEx(...)
Firmware: J-Link Lite-XMC4200 Rev.1 compiled Apr  5 2017 11:59:07
Hardware: V1.00
S/N: 591122998
TELNET listener socket opened on port 19021WEBSRV 
Starting webserver (0024ms, 0049ms total)
T82F8 015:001 WEBSRV Webserver running on local port 19080 (0024ms, 0049ms total)
T82F8 015:001   returns O.K. (0024ms, 0049ms total)
T82F8 015:025 JLINK_GetEmuCaps()  returns 0xB8EA5A33 (0000ms, 0049ms total)
T82F8 015:037 JLINK_TIF_GetAvailable(...) (0001ms, 0050ms total)
T82F8 015:039 JLINK_SetErrorOutHandler(...) (0000ms, 0050ms total)
T82F8 015:039 JLINK_ExecCommand("ProjectFile = "D:\git_svn\XMC4_BURN\JLinkSettings.ini"", ...).   returns 0x00 (0095ms, 0145ms total)
T82F8 015:135 JLINK_ExecCommand("Device = XMC4402-F100x256", ...). Device "XMC4402-256" selected.  returns 0x00 (0003ms, 0148ms total)
T82F8 015:138 JLINK_ExecCommand("DisableConnectionTimeout", ...).   returns 0x01 (0000ms, 0148ms total)
T82F8 015:138 JLINK_GetHardwareVersion()  returns 0x2710 (0000ms, 0148ms total)
T82F8 015:138 JLINK_GetDLLVersion()  returns 63008 (0000ms, 0148ms total)
T82F8 015:138 JLINK_GetFirmwareString(...) (0000ms, 0148ms total)
T82F8 015:141 JLINK_GetDLLVersion()  returns 63008 (0000ms, 0148ms total)
T82F8 015:141 JLINK_GetCompileDateTime() (0000ms, 0148ms total)
T82F8 015:146 JLINK_GetFirmwareString(...) (0000ms, 0148ms total)
T82F8 015:149 JLINK_GetHardwareVersion()  returns 0x2710 (0000ms, 0148ms total)
T82F8 015:151 JLINK_TIF_Select(JLINKARM_TIF_SWD)  returns 0x00 (0005ms, 0153ms total)
T82F8 015:156 JLINK_SetSpeed(5000) (0001ms, 0154ms total)
T82F8 015:157 JLINK_GetId()Performing XMC4500 connection sequence.
                JLINK_EMU_HasCapEx(0x0000002C)  returns 0x01 (0000ms, 0000ms total)
               >0x0D TIF> >0x28 TIF> >0x0D TIF> >0x28 TIF> >0x0D TIF> >0x28 TIF> >0x0D TIF> >0x28 TIF> >0x0D TIF> >0x21 TIF> >0x0D TIF> >0x21 TIF> >0x0D TIF> >0x21 TIF> >0x0D TIF> >0x21 TIF> >0x0D TIF> >0x28 TIF> >0x0D TIF> >0x28 TIF> >0x0D TIF> >0x21 TIF> >0x0D TIF> >0x28 TIF>Scanning AP map to find all available APs >0x0D TIF> >0x28 TIF> >0x0D TIF> >0x21 TIF> >0x0D TIF> >0x21 TIF> >0x0D TIF> >0x28 TIF> >0x0D TIF> >0x21 TIF> >0x0D TIF> >0x21 TIF>AP[1]: Stopped AP scan as end of AP map has been reached
AP[0]: AHB-AP (IDR: 0x24770011)Iterating through AP map to find AHB-AP to use >0x42 TIF> >0x28 TIF> >0x0D TIF> >0x28 TIF> >0x0D TIF> >0x21 TIF> >0x0D TIF> >0x21 TIF> >0x42 TIF> >0x28 TIF> >0x0D TIF> >0x28 TIF> >0x0D TIF> >0x28 TIF> >0x0D TIF> >0x21 TIF> >0x0D TIF> >0x21 TIF>AP[0]: Core foundAP[0]: AHB-AP ROM base: 0xE00FF000 >0x0D TIF> >0x28 TIF> >0x0D TIF> >0x28 TIF> >0x0D TIF> >0x28 TIF> >0x0D TIF> >0x21 TIF> >0x0D TIF> >0x21 TIF>CPUID register: 0x410FC241. Implementer code: 0x41 (ARM)
Found Cortex-M4 r0p1, Little endian. -- CPU_ReadMem(4 bytes @ 0xE000EDF0) -- CPU_ReadMem(4 bytes @ 0xE0002000)FPUnit: 6 code (BP) slots and 2 literal slots -- CPU_ReadMem(4 bytes @ 0xE000EDFC) -- CPU_WriteMem(4 bytes @ 0xE000EDFC) -- CPU_ReadMem(4 bytes @ 0xE0001000) -- CPU_WriteMem(4 bytes @ 0xE0001000) -- CPU_ReadMem(4 bytes @ 0xE000ED88) -- CPU_WriteMem(4 bytes @ 0xE000ED88) -- CPU_ReadMem(4 bytes @ 0xE000ED88) -- CPU_WriteMem(4 bytes @ 0xE000ED88)CoreSight components:ROMTbl[0] @ E00FF000
 -- CPU_ReadMem(16 bytes @ 0xE00FF000) -- CPU_ReadMem(16 bytes @ 0xE000EFF0) -- CPU_ReadMem(16 bytes @ 0xE000EFE0)ROMTbl[0][0]: E000E000, CID: B105E00D, PID: 000BB00C SCS-M7 -- CPU_ReadMem(16 bytes @ 0xE0001FF0) -- CPU_ReadMem(16 bytes @ 0xE0001FE0)ROMTbl[0][1]: E0001000, CID: B105E00D, PID: 003BB002 DWT -- CPU_ReadMem(16 bytes @ 0xE0002FF0) -- CPU_ReadMem(16 bytes @ 0xE0002FE0)ROMTbl[0][2]: E0002000, CID: B105E00D, PID: 002BB003 FPB -- CPU_ReadMem(16 bytes @ 0xE0000FF0)
 -- CPU_ReadMem(16 bytes @ 0xE0000FE0)ROMTbl[0][3]: E0000000, CID: B105E00D, PID: 003BB001 ITM -- CPU_ReadMem(16 bytes @ 0xE00FF010) -- CPU_ReadMem(16 bytes @ 0xE0040FF0) -- CPU_ReadMem(16 bytes @ 0xE0040FE0)ROMTbl[0][4]: E0040000, CID: B105900D, PID: 000BB9A1 TPIU -- CPU_ReadMem(16 bytes @ 0xE0041FF0) -- CPU_ReadMem(16 bytes @ 0xE0041FE0)ROMTbl[0][5]: E0041000, CID: B105900D, PID: 000BB925 ETM >0x0D TIF> >0x21 TIF>  returns 0x2BA01477 (0281ms, 0435ms total)
T82F8 015:438 JLINK_GetDLLVersion()  returns 63008 (0000ms, 0435ms total)
T82F8 015:438 JLINK_CORE_GetFound()  returns 0xE0000FF (0000ms, 0435ms total)
T82F8 015:438 JLINK_GetDebugInfo(0x100 = JLINKARM_ROM_TABLE_ADDR_INDEX) -- Value=0xE00FF000  returns 0x00 (0000ms, 0435ms total)
T82F8 015:440 JLINK_GetDebugInfo(0x100 = JLINKARM_ROM_TABLE_ADDR_INDEX) -- Value=0xE00FF000  returns 0x00 (0000ms, 0435ms total)
T82F8 015:440 JLINK_GetDebugInfo(0x101 = JLINKARM_DEBUG_INFO_ETM_ADDR_INDEX) -- Value=0xE0041000  returns 0x00 (0000ms, 0435ms total)
T82F8 015:441 JLINK_ReadMemEx(0xE0041FD0, 0x0020 Bytes, ..., Flags = 0x02000004) -- CPU_ReadMem(32 bytes @ 0xE0041FD0) - Data: 04 00 00 00 00 00 00 00 00 00 00 00 00 00 00 00 ...  returns 0x20 (0001ms, 0436ms total)
T82F8 015:442 JLINK_GetDebugInfo(0x102 = JLINKARM_DEBUG_INFO_MTB_ADDR_INDEX) -- Value=0x00000000  returns 0x00 (0000ms, 0436ms total)
T82F8 015:442 JLINK_GetDebugInfo(0x103 = JLINKARM_DEBUG_INFO_TPIU_ADDR_INDEX) -- Value=0xE0040000  returns 0x00 (0000ms, 0436ms total)
T82F8 015:442 JLINK_GetDebugInfo(0x104 = JLINKARM_DEBUG_INFO_ITM_ADDR_INDEX) -- Value=0xE0000000  returns 0x00 (0000ms, 0436ms total)
T82F8 015:442 JLINK_GetDebugInfo(0x105 = JLINKARM_DEBUG_INFO_DWT_ADDR_INDEX) -- Value=0xE0001000  returns 0x00 (0000ms, 0436ms total)
T82F8 015:442 JLINK_GetDebugInfo(0x106 = JLINKARM_DEBUG_INFO_FPB_ADDR_INDEX) -- Value=0xE0002000  returns 0x00 (0000ms, 0436ms total)
T82F8 015:442 JLINK_GetDebugInfo(0x107 = JLINKARM_DEBUG_INFO_NVIC_ADDR_INDEX) -- Value=0xE000E000  returns 0x00 (0000ms, 0436ms total)
T82F8 015:442 JLINK_GetDebugInfo(0x10C = JLINKARM_DEBUG_INFO_DBG_ADDR_INDEX) -- Value=0xE000EDF0  returns 0x00 (0000ms, 0436ms total)
T82F8 015:442 JLINK_GetDebugInfo(0x01 = Unknown) -- Value=0x00000001  returns 0x00 (0000ms, 0436ms total)
T82F8 015:442 JLINK_ReadMemU32(0xE000ED00, 0x0001 Items, ...) -- CPU_ReadMem(4 bytes @ 0xE000ED00) - Data: 41 C2 0F 41  returns 0x01 (0001ms, 0437ms total)
T82F8 015:443 JLINK_GetDebugInfo(0x10F = JLINKARM_DEBUG_INFO_HAS_CORTEX_M_SECURITY_EXT_INDEX) -- Value=0x00000000  returns 0x00 (0000ms, 0437ms total)
T82F8 015:443 JLINK_SetResetType(JLINKARM_CM3_RESET_TYPE_NORMAL)  returns JLINKARM_CM3_RESET_TYPE_CORE (0000ms, 0437ms total)
T82F8 015:443 JLINK_Reset()Performing XMC4500 reset -- CPU_ReadMem(4 bytes @ 0x0C000004) -- CPU_WriteMem(4 bytes @ 0xE000ED0C) -- CPU_WriteMem(4 bytes @ 0xE0002000) -- CPU_ReadMem(4 bytes @ 0xE000EDFC) -- CPU_ReadMem(4 bytes @ 0xE0001000) (0042ms, 0479ms total)
T82F8 015:485 JLINK_Halt()  returns 0x00 (0000ms, 0479ms total)
T82F8 015:485 JLINK_ReadMemU32(0xE000EDF0, 0x0001 Items, ...) -- CPU_ReadMem(4 bytes @ 0xE000EDF0) - Data: 03 00 03 00  returns 0x01 (0002ms, 0481ms total)
T82F8 015:487 JLINK_WriteU32(0xE000EDF0, 0xA05F0003) -- CPU_WriteMem(4 bytes @ 0xE000EDF0)  returns 0x00 (0001ms, 0482ms total)
T82F8 015:488 JLINK_WriteU32(0xE000EDFC, 0x01000000) -- CPU_WriteMem(4 bytes @ 0xE000EDFC)  returns 0x00 (0001ms, 0483ms total)
T82F8 015:497 JLINK_GetHWStatus(...)  returns 0x00 (0002ms, 0485ms total)
T82F8 015:506 JLINK_GetNumBPUnits(Type = 0xFFFFFF00)  returns 0x06 (0000ms, 0485ms total)
T82F8 015:506 JLINK_GetNumBPUnits(Type = 0xF0)  returns 0x2000 (0000ms, 0485ms total)
T82F8 015:506 JLINK_GetNumWPUnits()  returns 0x04 (0000ms, 0485ms total)
T82F8 015:513 JLINK_GetSpeed()  returns 0xBB8 (0000ms, 0485ms total)
T82F8 015:518 JLINK_ReadMemU32(0xE000E004, 0x0001 Items, ...) -- CPU_ReadMem(4 bytes @ 0xE000E004) - Data: 03 00 00 00  returns 0x01 (0002ms, 0487ms total)
T82F8 015:520 JLINK_ReadMemU32(0xE000E004, 0x0001 Items, ...) -- CPU_ReadMem(4 bytes @ 0xE000E004) - Data: 03 00 00 00  returns 0x01 (0001ms, 0488ms total)
T82F8 015:521 JLINK_WriteMemEx(0xE0001000, 0x001C Bytes, ..., Flags = 0x02000004) - Data: 01 00 00 00 00 00 00 00 00 00 00 00 00 00 00 00 ... -- CPU_WriteMem(28 bytes @ 0xE0001000)  returns 0x1C (0002ms, 0490ms total)
T82F8 015:523 JLINK_Halt()  returns 0x00 (0000ms, 0490ms total)
T82F8 015:523 JLINK_IsHalted()  returns TRUE (0000ms, 0490ms total)
T82F8 015:526 JLINK_WriteMem(0x20000000, 0x0128 Bytes, ...) - Data: 00 BE 0A E0 0D 78 2D 06 68 40 08 24 40 00 00 D3 ... -- CPU_WriteMem(296 bytes @ 0x20000000)  returns 0x128 (0003ms, 0493ms total)
T82F8 015:529 JLINK_WriteReg(R0, 0x08000000)  returns 0x00 (0000ms, 0493ms total)
T82F8 015:529 JLINK_WriteReg(R1, 0x00B71B00)  returns 0x00 (0000ms, 0493ms total)
T82F8 015:529 JLINK_WriteReg(R2, 0x00000001)  returns 0x00 (0000ms, 0493ms total)
T82F8 015:529 JLINK_WriteReg(R3, 0x00000000)  returns 0x00 (0000ms, 0493ms total)
T82F8 015:529 JLINK_WriteReg(R4, 0x00000000)  returns 0x00 (0000ms, 0493ms total)
T82F8 015:529 JLINK_WriteReg(R5, 0x00000000)  returns 0x00 (0000ms, 0493ms total)
T82F8 015:529 JLINK_WriteReg(R6, 0x00000000)  returns 0x00 (0000ms, 0493ms total)
T82F8 015:529 JLINK_WriteReg(R7, 0x00000000)  returns 0x00 (0000ms, 0493ms total)
T82F8 015:529 JLINK_WriteReg(R8, 0x00000000)  returns 0x00 (0000ms, 0493ms total)
T82F8 015:529 JLINK_WriteReg(R9, 0x20000124)  returns 0x00 (0000ms, 0493ms total)
T82F8 015:529 JLINK_WriteReg(R10, 0x00000000)  returns 0x00 (0000ms, 0493ms total)
T82F8 015:529 JLINK_WriteReg(R11, 0x00000000)  returns 0x00 (0000ms, 0493ms total)
T82F8 015:529 JLINK_WriteReg(R12, 0x00000000)  returns 0x00 (0000ms, 0493ms total)
T82F8 015:529 JLINK_WriteReg(R13 (SP), 0x20001000)  returns 0x00 (0000ms, 0493ms total)
T82F8 015:529 JLINK_WriteReg(R14, 0x20000001)  returns 0x00 (0000ms, 0493ms total)
T82F8 015:529 JLINK_WriteReg(R15 (PC), 0x20000038)  returns 0x00 (0000ms, 0493ms total)
T82F8 015:529 JLINK_WriteReg(XPSR, 0x01000000)  returns 0x00 (0001ms, 0494ms total)
T82F8 015:530 JLINK_WriteReg(MSP, 0x20001000)  returns 0x00 (0000ms, 0494ms total)
T82F8 015:530 JLINK_WriteReg(PSP, 0x20001000)  returns 0x00 (0000ms, 0494ms total)
T82F8 015:530 JLINK_WriteReg(CFBP, 0x00000000)  returns 0x00 (0000ms, 0494ms total)
T82F8 015:530 JLINK_SetBPEx(Addr = 0x20000000, Type = 0xFFFFFFF2) -- CPU_ReadMem(2 bytes @ 0x20000000)  returns 0x00000001 (0000ms, 0494ms total)
T82F8 015:530 JLINK_Go() -- CPU_WriteMem(2 bytes @ 0x20000000) -- CPU_ReadMem(4 bytes @ 0xE0001000) -- CPU_WriteMem(4 bytes @ 0xE0002008) -- CPU_WriteMem(4 bytes @ 0xE000200C) -- CPU_WriteMem(4 bytes @ 0xE0002010) -- CPU_WriteMem(4 bytes @ 0xE0002014) -- CPU_WriteMem(4 bytes @ 0xE0002018) -- CPU_WriteMem(4 bytes @ 0xE000201C) -- CPU_WriteMem(4 bytes @ 0xE0001004) (0011ms, 0505ms total)
T82F8 015:541 JLINK_IsHalted() -- CPU_ReadMem(2 bytes @ 0x20000000)  returns TRUE (0005ms, 0510ms total)
T82F8 015:546 JLINK_ReadReg(R15 (PC))  returns 0x20000000 (0000ms, 0505ms total)
T82F8 015:546 JLINK_ClrBPEx(BPHandle = 0x00000001)  returns 0x00 (0000ms, 0505ms total)
T82F8 015:546 JLINK_ReadReg(R0)  returns 0x00000000 (0000ms, 0505ms total)
T82F8 015:547 JLINK_WriteReg(R0, 0x08000000)  returns 0x00 (0000ms, 0505ms total)
T82F8 015:547 JLINK_WriteReg(R1, 0x00004000)  returns 0x00 (0000ms, 0505ms total)
T82F8 015:547 JLINK_WriteReg(R2, 0x00000000)  returns 0x00 (0000ms, 0505ms total)
T82F8 015:547 JLINK_WriteReg(R3, 0x00000000)  returns 0x00 (0000ms, 0505ms total)
T82F8 015:547 JLINK_WriteReg(R4, 0x00000000)  returns 0x00 (0000ms, 0505ms total)
T82F8 015:547 JLINK_WriteReg(R5, 0x00000000)  returns 0x00 (0000ms, 0505ms total)
T82F8 015:547 JLINK_WriteReg(R6, 0x00000000)  returns 0x00 (0000ms, 0505ms total)
T82F8 015:547 JLINK_WriteReg(R7, 0x00000000)  returns 0x00 (0000ms, 0505ms total)
T82F8 015:547 JLINK_WriteReg(R8, 0x00000000)  returns 0x00 (0000ms, 0505ms total)
T82F8 015:547 JLINK_WriteReg(R9, 0x20000124)  returns 0x00 (0000ms, 0505ms total)
T82F8 015:547 JLINK_WriteReg(R10, 0x00000000)  returns 0x00 (0000ms, 0505ms total)
T82F8 015:547 JLINK_WriteReg(R11, 0x00000000)  returns 0x00 (0000ms, 0505ms total)
T82F8 015:547 JLINK_WriteReg(R12, 0x00000000)  returns 0x00 (0000ms, 0505ms total)
T82F8 015:547 JLINK_WriteReg(R13 (SP), 0x20001000)  returns 0x00 (0000ms, 0505ms total)
T82F8 015:547 JLINK_WriteReg(R14, 0x20000001)  returns 0x00 (0000ms, 0505ms total)
T82F8 015:547 JLINK_WriteReg(R15 (PC), 0x20000020)  returns 0x00 (0000ms, 0505ms total)
T82F8 015:547 JLINK_WriteReg(XPSR, 0x01000000)  returns 0x00 (0000ms, 0505ms total)
T82F8 015:547 JLINK_WriteReg(MSP, 0x20001000)  returns 0x00 (0000ms, 0505ms total)
T82F8 015:547 JLINK_WriteReg(PSP, 0x20001000)  returns 0x00 (0000ms, 0505ms total)
T82F8 015:547 JLINK_WriteReg(CFBP, 0x00000000)  returns 0x00 (0000ms, 0505ms total)
T82F8 015:547 JLINK_SetBPEx(Addr = 0x20000000, Type = 0xFFFFFFF2)  returns 0x00000002 (0000ms, 0505ms total)
T82F8 015:547 JLINK_Go() -- CPU_ReadMem(4 bytes @ 0xE0001000) (0004ms, 0509ms total)
T82F8 015:551 JLINK_IsHalted()  returns FALSE (0001ms, 0510ms total)
T82F8 015:573 JLINK_IsHalted() -- CPU_ReadMem(2 bytes @ 0x20000000)  returns TRUE (0005ms, 0514ms total)
T82F8 015:578 JLINK_ReadReg(R15 (PC))  returns 0x20000000 (0000ms, 0509ms total)
T82F8 015:578 JLINK_ClrBPEx(BPHandle = 0x00000002)  returns 0x00 (0000ms, 0509ms total)
T82F8 015:578 JLINK_ReadReg(R0)  returns 0x00000000 (0000ms, 0509ms total)
T82F8 015:578 JLINK_WriteReg(R0, 0x08004000)  returns 0x00 (0000ms, 0509ms total)
T82F8 015:578 JLINK_WriteReg(R1, 0x00004000)  returns 0x00 (0000ms, 0509ms total)
T82F8 015:578 JLINK_WriteReg(R2, 0x00000000)  returns 0x00 (0000ms, 0509ms total)
T82F8 015:578 JLINK_WriteReg(R3, 0x00000000)  returns 0x00 (0000ms, 0509ms total)
T82F8 015:578 JLINK_WriteReg(R4, 0x00000000)  returns 0x00 (0000ms, 0509ms total)
T82F8 015:578 JLINK_WriteReg(R5, 0x00000000)  returns 0x00 (0000ms, 0509ms total)
T82F8 015:578 JLINK_WriteReg(R6, 0x00000000)  returns 0x00 (0000ms, 0509ms total)
T82F8 015:578 JLINK_WriteReg(R7, 0x00000000)  returns 0x00 (0000ms, 0509ms total)
T82F8 015:578 JLINK_WriteReg(R8, 0x00000000)  returns 0x00 (0000ms, 0509ms total)
T82F8 015:578 JLINK_WriteReg(R9, 0x20000124)  returns 0x00 (0000ms, 0509ms total)
T82F8 015:578 JLINK_WriteReg(R10, 0x00000000)  returns 0x00 (0000ms, 0509ms total)
T82F8 015:578 JLINK_WriteReg(R11, 0x00000000)  returns 0x00 (0000ms, 0509ms total)
T82F8 015:578 JLINK_WriteReg(R12, 0x00000000)  returns 0x00 (0000ms, 0509ms total)
T82F8 015:578 JLINK_WriteReg(R13 (SP), 0x20001000)  returns 0x00 (0000ms, 0509ms total)
T82F8 015:578 JLINK_WriteReg(R14, 0x20000001)  returns 0x00 (0000ms, 0509ms total)
T82F8 015:578 JLINK_WriteReg(R15 (PC), 0x20000020)  returns 0x00 (0000ms, 0509ms total)
T82F8 015:578 JLINK_WriteReg(XPSR, 0x01000000)  returns 0x00 (0001ms, 0510ms total)
T82F8 015:579 JLINK_WriteReg(MSP, 0x20001000)  returns 0x00 (0000ms, 0510ms total)
T82F8 015:579 JLINK_WriteReg(PSP, 0x20001000)  returns 0x00 (0000ms, 0510ms total)
T82F8 015:579 JLINK_WriteReg(CFBP, 0x00000000)  returns 0x00 (0000ms, 0510ms total)
T82F8 015:579 JLINK_SetBPEx(Addr = 0x20000000, Type = 0xFFFFFFF2)  returns 0x00000003 (0000ms, 0510ms total)
T82F8 015:579 JLINK_Go() -- CPU_ReadMem(4 bytes @ 0xE0001000) (0003ms, 0513ms total)
T82F8 015:582 JLINK_IsHalted()  returns FALSE (0001ms, 0514ms total)
T82F8 015:588 JLINK_IsHalted() -- CPU_ReadMem(2 bytes @ 0x20000000)  returns TRUE (0005ms, 0518ms total)
T82F8 015:593 JLINK_ReadReg(R15 (PC))  returns 0x20000000 (0000ms, 0513ms total)
T82F8 015:593 JLINK_ClrBPEx(BPHandle = 0x00000003)  returns 0x00 (0000ms, 0513ms total)
T82F8 015:593 JLINK_ReadReg(R0)  returns 0x00000000 (0000ms, 0513ms total)
T82F8 015:593 JLINK_WriteReg(R0, 0x08008000)  returns 0x00 (0000ms, 0513ms total)
T82F8 015:593 JLINK_WriteReg(R1, 0x00004000)  returns 0x00 (0000ms, 0513ms total)
T82F8 015:593 JLINK_WriteReg(R2, 0x00000000)  returns 0x00 (0000ms, 0513ms total)
T82F8 015:593 JLINK_WriteReg(R3, 0x00000000)  returns 0x00 (0000ms, 0513ms total)
T82F8 015:593 JLINK_WriteReg(R4, 0x00000000)  returns 0x00 (0000ms, 0513ms total)
T82F8 015:593 JLINK_WriteReg(R5, 0x00000000)  returns 0x00 (0001ms, 0514ms total)
T82F8 015:594 JLINK_WriteReg(R6, 0x00000000)  returns 0x00 (0000ms, 0514ms total)
T82F8 015:594 JLINK_WriteReg(R7, 0x00000000)  returns 0x00 (0000ms, 0514ms total)
T82F8 015:594 JLINK_WriteReg(R8, 0x00000000)  returns 0x00 (0000ms, 0514ms total)
T82F8 015:594 JLINK_WriteReg(R9, 0x20000124)  returns 0x00 (0000ms, 0514ms total)
T82F8 015:594 JLINK_WriteReg(R10, 0x00000000)  returns 0x00 (0000ms, 0514ms total)
T82F8 015:594 JLINK_WriteReg(R11, 0x00000000)  returns 0x00 (0000ms, 0514ms total)
T82F8 015:594 JLINK_WriteReg(R12, 0x00000000)  returns 0x00 (0000ms, 0514ms total)
T82F8 015:594 JLINK_WriteReg(R13 (SP), 0x20001000)  returns 0x00 (0000ms, 0514ms total)
T82F8 015:594 JLINK_WriteReg(R14, 0x20000001)  returns 0x00 (0000ms, 0514ms total)
T82F8 015:594 JLINK_WriteReg(R15 (PC), 0x20000020)  returns 0x00 (0000ms, 0514ms total)
T82F8 015:594 JLINK_WriteReg(XPSR, 0x01000000)  returns 0x00 (0000ms, 0514ms total)
T82F8 015:594 JLINK_WriteReg(MSP, 0x20001000)  returns 0x00 (0000ms, 0514ms total)
T82F8 015:594 JLINK_WriteReg(PSP, 0x20001000)  returns 0x00 (0000ms, 0514ms total)
T82F8 015:594 JLINK_WriteReg(CFBP, 0x00000000)  returns 0x00 (0000ms, 0514ms total)
T82F8 015:594 JLINK_SetBPEx(Addr = 0x20000000, Type = 0xFFFFFFF2)  returns 0x00000004 (0000ms, 0514ms total)
T82F8 015:594 JLINK_Go() -- CPU_ReadMem(4 bytes @ 0xE0001000) (0003ms, 0517ms total)
T82F8 015:597 JLINK_IsHalted()  returns FALSE (0001ms, 0518ms total)
T82F8 015:601 JLINK_IsHalted()  returns FALSE (0001ms, 0518ms total)
T82F8 015:603 JLINK_IsHalted() -- CPU_ReadMem(2 bytes @ 0x20000000)  returns TRUE (0005ms, 0522ms total)
T82F8 015:608 JLINK_ReadReg(R15 (PC))  returns 0x20000000 (0000ms, 0517ms total)
T82F8 015:608 JLINK_ClrBPEx(BPHandle = 0x00000004)  returns 0x00 (0000ms, 0517ms total)
T82F8 015:608 JLINK_ReadReg(R0)  returns 0x00000000 (0000ms, 0517ms total)
T82F8 015:608 JLINK_WriteReg(R0, 0x00000001)  returns 0x00 (0000ms, 0517ms total)
T82F8 015:608 JLINK_WriteReg(R1, 0x00004000)  returns 0x00 (0000ms, 0517ms total)
T82F8 015:608 JLINK_WriteReg(R2, 0x00000000)  returns 0x00 (0000ms, 0517ms total)
T82F8 015:608 JLINK_WriteReg(R3, 0x00000000)  returns 0x00 (0000ms, 0517ms total)
T82F8 015:608 JLINK_WriteReg(R4, 0x00000000)  returns 0x00 (0000ms, 0517ms total)
T82F8 015:608 JLINK_WriteReg(R5, 0x00000000)  returns 0x00 (0000ms, 0517ms total)
T82F8 015:608 JLINK_WriteReg(R6, 0x00000000)  returns 0x00 (0000ms, 0517ms total)
T82F8 015:608 JLINK_WriteReg(R7, 0x00000000)  returns 0x00 (0000ms, 0517ms total)
T82F8 015:608 JLINK_WriteReg(R8, 0x00000000)  returns 0x00 (0000ms, 0517ms total)
T82F8 015:608 JLINK_WriteReg(R9, 0x20000124)  returns 0x00 (0000ms, 0517ms total)
T82F8 015:608 JLINK_WriteReg(R10, 0x00000000)  returns 0x00 (0000ms, 0517ms total)
T82F8 015:608 JLINK_WriteReg(R11, 0x00000000)  returns 0x00 (0000ms, 0517ms total)
T82F8 015:608 JLINK_WriteReg(R12, 0x00000000)  returns 0x00 (0000ms, 0517ms total)
T82F8 015:608 JLINK_WriteReg(R13 (SP), 0x20001000)  returns 0x00 (0000ms, 0517ms total)
T82F8 015:608 JLINK_WriteReg(R14, 0x20000001)  returns 0x00 (0000ms, 0517ms total)
T82F8 015:608 JLINK_WriteReg(R15 (PC), 0x2000003C)  returns 0x00 (0000ms, 0517ms total)
T82F8 015:608 JLINK_WriteReg(XPSR, 0x01000000)  returns 0x00 (0000ms, 0517ms total)
T82F8 015:608 JLINK_WriteReg(MSP, 0x20001000)  returns 0x00 (0000ms, 0517ms total)
T82F8 015:608 JLINK_WriteReg(PSP, 0x20001000)  returns 0x00 (0000ms, 0517ms total)
T82F8 015:608 JLINK_WriteReg(CFBP, 0x00000000)  returns 0x00 (0000ms, 0517ms total)
T82F8 015:608 JLINK_SetBPEx(Addr = 0x20000000, Type = 0xFFFFFFF2)  returns 0x00000005 (0000ms, 0517ms total)
T82F8 015:608 JLINK_Go() -- CPU_ReadMem(4 bytes @ 0xE0001000) (0004ms, 0521ms total)
T82F8 015:612 JLINK_IsHalted() -- CPU_ReadMem(2 bytes @ 0x20000000)  returns TRUE (0004ms, 0525ms total)
T82F8 015:616 JLINK_ReadReg(R15 (PC))  returns 0x20000000 (0000ms, 0521ms total)
T82F8 015:616 JLINK_ClrBPEx(BPHandle = 0x00000005)  returns 0x00 (0000ms, 0521ms total)
T82F8 015:616 JLINK_ReadReg(R0)  returns 0x00000000 (0000ms, 0521ms total)
T82F8 015:672 JLINK_WriteMem(0x20000000, 0x0128 Bytes, ...) - Data: 00 BE 0A E0 0D 78 2D 06 68 40 08 24 40 00 00 D3 ... -- CPU_WriteMem(296 bytes @ 0x20000000)  returns 0x128 (0002ms, 0523ms total)
T82F8 015:674 JLINK_WriteReg(R0, 0x08000000)  returns 0x00 (0000ms, 0523ms total)
T82F8 015:674 JLINK_WriteReg(R1, 0x00B71B00)  returns 0x00 (0000ms, 0523ms total)
T82F8 015:674 JLINK_WriteReg(R2, 0x00000002)  returns 0x00 (0000ms, 0523ms total)
T82F8 015:674 JLINK_WriteReg(R3, 0x00000000)  returns 0x00 (0000ms, 0523ms total)
T82F8 015:674 JLINK_WriteReg(R4, 0x00000000)  returns 0x00 (0000ms, 0523ms total)
T82F8 015:674 JLINK_WriteReg(R5, 0x00000000)  returns 0x00 (0000ms, 0523ms total)
T82F8 015:674 JLINK_WriteReg(R6, 0x00000000)  returns 0x00 (0001ms, 0524ms total)
T82F8 015:675 JLINK_WriteReg(R7, 0x00000000)  returns 0x00 (0000ms, 0524ms total)
T82F8 015:675 JLINK_WriteReg(R8, 0x00000000)  returns 0x00 (0000ms, 0524ms total)
T82F8 015:675 JLINK_WriteReg(R9, 0x20000124)  returns 0x00 (0000ms, 0524ms total)
T82F8 015:675 JLINK_WriteReg(R10, 0x00000000)  returns 0x00 (0000ms, 0524ms total)
T82F8 015:675 JLINK_WriteReg(R11, 0x00000000)  returns 0x00 (0000ms, 0524ms total)
T82F8 015:675 JLINK_WriteReg(R12, 0x00000000)  returns 0x00 (0000ms, 0524ms total)
T82F8 015:675 JLINK_WriteReg(R13 (SP), 0x20001000)  returns 0x00 (0000ms, 0524ms total)
T82F8 015:675 JLINK_WriteReg(R14, 0x20000001)  returns 0x00 (0000ms, 0524ms total)
T82F8 015:675 JLINK_WriteReg(R15 (PC), 0x20000038)  returns 0x00 (0000ms, 0524ms total)
T82F8 015:675 JLINK_WriteReg(XPSR, 0x01000000)  returns 0x00 (0000ms, 0524ms total)
T82F8 015:675 JLINK_WriteReg(MSP, 0x20001000)  returns 0x00 (0000ms, 0524ms total)
T82F8 015:675 JLINK_WriteReg(PSP, 0x20001000)  returns 0x00 (0000ms, 0524ms total)
T82F8 015:675 JLINK_WriteReg(CFBP, 0x00000000)  returns 0x00 (0000ms, 0524ms total)
T82F8 015:675 JLINK_SetBPEx(Addr = 0x20000000, Type = 0xFFFFFFF2) -- CPU_ReadMem(2 bytes @ 0x20000000)  returns 0x00000006 (0000ms, 0524ms total)
T82F8 015:675 JLINK_Go() -- CPU_WriteMem(2 bytes @ 0x20000000) -- CPU_ReadMem(4 bytes @ 0xE0001000) (0004ms, 0528ms total)
T82F8 015:679 JLINK_IsHalted() -- CPU_ReadMem(2 bytes @ 0x20000000)  returns TRUE (0005ms, 0533ms total)
T82F8 015:684 JLINK_ReadReg(R15 (PC))  returns 0x20000000 (0000ms, 0528ms total)
T82F8 015:684 JLINK_ClrBPEx(BPHandle = 0x00000006)  returns 0x00 (0000ms, 0528ms total)
T82F8 015:684 JLINK_ReadReg(R0)  returns 0x00000000 (0000ms, 0528ms total)
T82F8 015:685 JLINK_WriteMem(0x20000128, 0x0100 Bytes, ...) - Data: B0 40 00 20 E9 02 00 08 F5 02 00 08 F5 02 00 08 ... -- CPU_WriteMem(256 bytes @ 0x20000128)  returns 0x100 (0002ms, 0530ms total)
T82F8 015:687 JLINK_WriteReg(R0, 0x08000000)  returns 0x00 (0000ms, 0530ms total)
T82F8 015:687 JLINK_WriteReg(R1, 0x00000100)  returns 0x00 (0000ms, 0530ms total)
T82F8 015:687 JLINK_WriteReg(R2, 0x20000128)  returns 0x00 (0000ms, 0530ms total)
T82F8 015:687 JLINK_WriteReg(R3, 0x00000000)  returns 0x00 (0000ms, 0530ms total)
T82F8 015:687 JLINK_WriteReg(R4, 0x00000000)  returns 0x00 (0000ms, 0530ms total)
T82F8 015:687 JLINK_WriteReg(R5, 0x00000000)  returns 0x00 (0000ms, 0530ms total)
T82F8 015:687 JLINK_WriteReg(R6, 0x00000000)  returns 0x00 (0000ms, 0530ms total)
T82F8 015:687 JLINK_WriteReg(R7, 0x00000000)  returns 0x00 (0000ms, 0530ms total)
T82F8 015:687 JLINK_WriteReg(R8, 0x00000000)  returns 0x00 (0000ms, 0530ms total)
T82F8 015:687 JLINK_WriteReg(R9, 0x20000124)  returns 0x00 (0000ms, 0530ms total)
T82F8 015:687 JLINK_WriteReg(R10, 0x00000000)  returns 0x00 (0000ms, 0530ms total)
T82F8 015:687 JLINK_WriteReg(R11, 0x00000000)  returns 0x00 (0000ms, 0530ms total)
T82F8 015:687 JLINK_WriteReg(R12, 0x00000000)  returns 0x00 (0000ms, 0530ms total)
T82F8 015:687 JLINK_WriteReg(R13 (SP), 0x20001000)  returns 0x00 (0000ms, 0530ms total)
T82F8 015:687 JLINK_WriteReg(R14, 0x20000001)  returns 0x00 (0000ms, 0530ms total)
T82F8 015:687 JLINK_WriteReg(R15 (PC), 0x200000A4)  returns 0x00 (0000ms, 0530ms total)
T82F8 015:687 JLINK_WriteReg(XPSR, 0x01000000)  returns 0x00 (0000ms, 0530ms total)
T82F8 015:687 JLINK_WriteReg(MSP, 0x20001000)  returns 0x00 (0000ms, 0530ms total)
T82F8 015:687 JLINK_WriteReg(PSP, 0x20001000)  returns 0x00 (0000ms, 0530ms total)
T82F8 015:687 JLINK_WriteReg(CFBP, 0x00000000)  returns 0x00 (0000ms, 0530ms total)
T82F8 015:687 JLINK_SetBPEx(Addr = 0x20000000, Type = 0xFFFFFFF2)  returns 0x00000007 (0000ms, 0530ms total)
T82F8 015:687 JLINK_Go() -- CPU_ReadMem(4 bytes @ 0xE0001000) (0004ms, 0534ms total)
T82F8 015:691 JLINK_IsHalted()  returns FALSE (0001ms, 0535ms total)
T82F8 015:698 JLINK_IsHalted() -- CPU_ReadMem(2 bytes @ 0x20000000)  returns TRUE (0005ms, 0539ms total)
T82F8 015:703 JLINK_ReadReg(R15 (PC))  returns 0x20000000 (0000ms, 0534ms total)
T82F8 015:703 JLINK_ClrBPEx(BPHandle = 0x00000007)  returns 0x00 (0000ms, 0534ms total)
T82F8 015:704 JLINK_ReadReg(R0)  returns 0x00000000 (0000ms, 0535ms total)
T82F8 015:704 JLINK_WriteMem(0x20000128, 0x0100 Bytes, ...) - Data: F5 02 00 08 F5 02 00 08 F5 02 00 08 F5 02 00 08 ... -- CPU_WriteMem(256 bytes @ 0x20000128)  returns 0x100 (0003ms, 0538ms total)
T82F8 015:707 JLINK_WriteReg(R0, 0x08000100)  returns 0x00 (0000ms, 0538ms total)
T82F8 015:707 JLINK_WriteReg(R1, 0x00000100)  returns 0x00 (0000ms, 0538ms total)
T82F8 015:707 JLINK_WriteReg(R2, 0x20000128)  returns 0x00 (0000ms, 0538ms total)
T82F8 015:707 JLINK_WriteReg(R3, 0x00000000)  returns 0x00 (0000ms, 0538ms total)
T82F8 015:707 JLINK_WriteReg(R4, 0x00000000)  returns 0x00 (0000ms, 0538ms total)
T82F8 015:707 JLINK_WriteReg(R5, 0x00000000)  returns 0x00 (0000ms, 0538ms total)
T82F8 015:707 JLINK_WriteReg(R6, 0x00000000)  returns 0x00 (0000ms, 0538ms total)
T82F8 015:707 JLINK_WriteReg(R7, 0x00000000)  returns 0x00 (0000ms, 0538ms total)
T82F8 015:707 JLINK_WriteReg(R8, 0x00000000)  returns 0x00 (0000ms, 0538ms total)
T82F8 015:707 JLINK_WriteReg(R9, 0x20000124)  returns 0x00 (0000ms, 0538ms total)
T82F8 015:707 JLINK_WriteReg(R10, 0x00000000)  returns 0x00 (0000ms, 0538ms total)
T82F8 015:707 JLINK_WriteReg(R11, 0x00000000)  returns 0x00 (0000ms, 0538ms total)
T82F8 015:707 JLINK_WriteReg(R12, 0x00000000)  returns 0x00 (0000ms, 0538ms total)
T82F8 015:707 JLINK_WriteReg(R13 (SP), 0x20001000)  returns 0x00 (0000ms, 0538ms total)
T82F8 015:707 JLINK_WriteReg(R14, 0x20000001)  returns 0x00 (0000ms, 0538ms total)
T82F8 015:707 JLINK_WriteReg(R15 (PC), 0x200000A4)  returns 0x00 (0000ms, 0538ms total)
T82F8 015:707 JLINK_WriteReg(XPSR, 0x01000000)  returns 0x00 (0000ms, 0538ms total)
T82F8 015:707 JLINK_WriteReg(MSP, 0x20001000)  returns 0x00 (0000ms, 0538ms total)
T82F8 015:707 JLINK_WriteReg(PSP, 0x20001000)  returns 0x00 (0000ms, 0538ms total)
T82F8 015:707 JLINK_WriteReg(CFBP, 0x00000000)  returns 0x00 (0000ms, 0538ms total)
T82F8 015:707 JLINK_SetBPEx(Addr = 0x20000000, Type = 0xFFFFFFF2)  returns 0x00000008 (0000ms, 0538ms total)
T82F8 015:707 JLINK_Go() -- CPU_ReadMem(4 bytes @ 0xE0001000) (0004ms, 0542ms total)
T82F8 015:711 JLINK_IsHalted()  returns FALSE (0001ms, 0543ms total)
T82F8 015:716 JLINK_IsHalted() -- CPU_ReadMem(2 bytes @ 0x20000000)  returns TRUE (0005ms, 0547ms total)
T82F8 015:722 JLINK_ReadReg(R15 (PC))  returns 0x20000000 (0000ms, 0542ms total)
T82F8 015:722 JLINK_ClrBPEx(BPHandle = 0x00000008)  returns 0x00 (0000ms, 0542ms total)
T82F8 015:722 JLINK_ReadReg(R0)  returns 0x00000000 (0000ms, 0542ms total)
T82F8 015:722 JLINK_WriteMem(0x20000128, 0x0100 Bytes, ...) - Data: 00 F0 02 F8 00 F0 60 F8 0A A0 90 E8 00 0C 82 44 ... -- CPU_WriteMem(256 bytes @ 0x20000128)  returns 0x100 (0003ms, 0545ms total)
T82F8 015:725 JLINK_WriteReg(R0, 0x08000200)  returns 0x00 (0000ms, 0545ms total)
T82F8 015:725 JLINK_WriteReg(R1, 0x00000100)  returns 0x00 (0000ms, 0545ms total)
T82F8 015:725 JLINK_WriteReg(R2, 0x20000128)  returns 0x00 (0000ms, 0545ms total)
T82F8 015:725 JLINK_WriteReg(R3, 0x00000000)  returns 0x00 (0000ms, 0545ms total)
T82F8 015:725 JLINK_WriteReg(R4, 0x00000000)  returns 0x00 (0000ms, 0545ms total)
T82F8 015:725 JLINK_WriteReg(R5, 0x00000000)  returns 0x00 (0000ms, 0545ms total)
T82F8 015:725 JLINK_WriteReg(R6, 0x00000000)  returns 0x00 (0000ms, 0545ms total)
T82F8 015:725 JLINK_WriteReg(R7, 0x00000000)  returns 0x00 (0000ms, 0545ms total)
T82F8 015:725 JLINK_WriteReg(R8, 0x00000000)  returns 0x00 (0000ms, 0545ms total)
T82F8 015:725 JLINK_WriteReg(R9, 0x20000124)  returns 0x00 (0000ms, 0545ms total)
T82F8 015:725 JLINK_WriteReg(R10, 0x00000000)  returns 0x00 (0000ms, 0545ms total)
T82F8 015:725 JLINK_WriteReg(R11, 0x00000000)  returns 0x00 (0000ms, 0545ms total)
T82F8 015:725 JLINK_WriteReg(R12, 0x00000000)  returns 0x00 (0000ms, 0545ms total)
T82F8 015:725 JLINK_WriteReg(R13 (SP), 0x20001000)  returns 0x00 (0000ms, 0545ms total)
T82F8 015:725 JLINK_WriteReg(R14, 0x20000001)  returns 0x00 (0000ms, 0545ms total)
T82F8 015:725 JLINK_WriteReg(R15 (PC), 0x200000A4)  returns 0x00 (0000ms, 0545ms total)
T82F8 015:725 JLINK_WriteReg(XPSR, 0x01000000)  returns 0x00 (0000ms, 0545ms total)
T82F8 015:725 JLINK_WriteReg(MSP, 0x20001000)  returns 0x00 (0000ms, 0545ms total)
T82F8 015:725 JLINK_WriteReg(PSP, 0x20001000)  returns 0x00 (0000ms, 0545ms total)
T82F8 015:725 JLINK_WriteReg(CFBP, 0x00000000)  returns 0x00 (0000ms, 0545ms total)
T82F8 015:725 JLINK_SetBPEx(Addr = 0x20000000, Type = 0xFFFFFFF2)  returns 0x00000009 (0000ms, 0545ms total)
T82F8 015:725 JLINK_Go() -- CPU_ReadMem(4 bytes @ 0xE0001000) (0004ms, 0549ms total)
T82F8 015:729 JLINK_IsHalted()  returns FALSE (0001ms, 0550ms total)
T82F8 015:731 JLINK_IsHalted()  returns FALSE (0001ms, 0550ms total)
T82F8 015:733 JLINK_IsHalted() -- CPU_ReadMem(2 bytes @ 0x20000000)  returns TRUE (0005ms, 0554ms total)
T82F8 015:738 JLINK_ReadReg(R15 (PC))  returns 0x20000000 (0000ms, 0549ms total)
T82F8 015:738 JLINK_ClrBPEx(BPHandle = 0x00000009)  returns 0x00 (0001ms, 0550ms total)
T82F8 015:739 JLINK_ReadReg(R0)  returns 0x00000000 (0000ms, 0550ms total)
T82F8 015:740 JLINK_WriteMem(0x20000128, 0x0100 Bytes, ...) - Data: 70 47 00 00 B0 40 00 20 F9 68 00 08 01 02 00 08 ... -- CPU_WriteMem(256 bytes @ 0x20000128)  returns 0x100 (0002ms, 0552ms total)
T82F8 015:742 JLINK_WriteReg(R0, 0x08000300)  returns 0x00 (0000ms, 0552ms total)
T82F8 015:742 JLINK_WriteReg(R1, 0x00000100)  returns 0x00 (0000ms, 0552ms total)
T82F8 015:742 JLINK_WriteReg(R2, 0x20000128)  returns 0x00 (0001ms, 0553ms total)
T82F8 015:743 JLINK_WriteReg(R3, 0x00000000)  returns 0x00 (0000ms, 0553ms total)
T82F8 015:743 JLINK_WriteReg(R4, 0x00000000)  returns 0x00 (0000ms, 0553ms total)
T82F8 015:743 JLINK_WriteReg(R5, 0x00000000)  returns 0x00 (0000ms, 0553ms total)
T82F8 015:743 JLINK_WriteReg(R6, 0x00000000)  returns 0x00 (0000ms, 0553ms total)
T82F8 015:743 JLINK_WriteReg(R7, 0x00000000)  returns 0x00 (0000ms, 0553ms total)
T82F8 015:743 JLINK_WriteReg(R8, 0x00000000)  returns 0x00 (0000ms, 0553ms total)
T82F8 015:743 JLINK_WriteReg(R9, 0x20000124)  returns 0x00 (0000ms, 0553ms total)
T82F8 015:743 JLINK_WriteReg(R10, 0x00000000)  returns 0x00 (0000ms, 0553ms total)
T82F8 015:743 JLINK_WriteReg(R11, 0x00000000)  returns 0x00 (0000ms, 0553ms total)
T82F8 015:743 JLINK_WriteReg(R12, 0x00000000)  returns 0x00 (0000ms, 0553ms total)
T82F8 015:743 JLINK_WriteReg(R13 (SP), 0x20001000)  returns 0x00 (0000ms, 0553ms total)
T82F8 015:743 JLINK_WriteReg(R14, 0x20000001)  returns 0x00 (0000ms, 0553ms total)
T82F8 015:743 JLINK_WriteReg(R15 (PC), 0x200000A4)  returns 0x00 (0000ms, 0553ms total)
T82F8 015:743 JLINK_WriteReg(XPSR, 0x01000000)  returns 0x00 (0000ms, 0553ms total)
T82F8 015:743 JLINK_WriteReg(MSP, 0x20001000)  returns 0x00 (0000ms, 0553ms total)
T82F8 015:743 JLINK_WriteReg(PSP, 0x20001000)  returns 0x00 (0000ms, 0553ms total)
T82F8 015:743 JLINK_WriteReg(CFBP, 0x00000000)  returns 0x00 (0000ms, 0553ms total)
T82F8 015:743 JLINK_SetBPEx(Addr = 0x20000000, Type = 0xFFFFFFF2)  returns 0x0000000A (0000ms, 0553ms total)
T82F8 015:743 JLINK_Go() -- CPU_ReadMem(4 bytes @ 0xE0001000) (0003ms, 0556ms total)
T82F8 015:747 JLINK_IsHalted()  returns FALSE (0000ms, 0556ms total)
T82F8 015:748 JLINK_IsHalted()  returns FALSE (0000ms, 0556ms total)
T82F8 015:749 JLINK_IsHalted()  returns FALSE (0000ms, 0556ms total)
T82F8 015:750 JLINK_IsHalted()  returns FALSE (0000ms, 0556ms total)
T82F8 015:753 JLINK_IsHalted() -- CPU_ReadMem(2 bytes @ 0x20000000)  returns TRUE (0005ms, 0561ms total)
T82F8 015:758 JLINK_ReadReg(R15 (PC))  returns 0x20000000 (0000ms, 0556ms total)
T82F8 015:758 JLINK_ClrBPEx(BPHandle = 0x0000000A)  returns 0x00 (0000ms, 0556ms total)
T82F8 015:758 JLINK_ReadReg(R0)  returns 0x00000000 (0000ms, 0556ms total)
T82F8 015:759 JLINK_WriteMem(0x20000128, 0x0100 Bytes, ...) - Data: 90 ED 01 1A 70 EE C0 0A 90 ED 00 0A 71 EE E0 1A ... -- CPU_WriteMem(256 bytes @ 0x20000128)  returns 0x100 (0003ms, 0559ms total)
T82F8 015:762 JLINK_WriteReg(R0, 0x08000400)  returns 0x00 (0000ms, 0559ms total)
T82F8 015:762 JLINK_WriteReg(R1, 0x00000100)  returns 0x00 (0000ms, 0559ms total)
T82F8 015:762 JLINK_WriteReg(R2, 0x20000128)  returns 0x00 (0000ms, 0559ms total)
T82F8 015:762 JLINK_WriteReg(R3, 0x00000000)  returns 0x00 (0000ms, 0559ms total)
T82F8 015:762 JLINK_WriteReg(R4, 0x00000000)  returns 0x00 (0000ms, 0559ms total)
T82F8 015:762 JLINK_WriteReg(R5, 0x00000000)  returns 0x00 (0000ms, 0559ms total)
T82F8 015:762 JLINK_WriteReg(R6, 0x00000000)  returns 0x00 (0000ms, 0559ms total)
T82F8 015:762 JLINK_WriteReg(R7, 0x00000000)  returns 0x00 (0000ms, 0559ms total)
T82F8 015:762 JLINK_WriteReg(R8, 0x00000000)  returns 0x00 (0000ms, 0559ms total)
T82F8 015:762 JLINK_WriteReg(R9, 0x20000124)  returns 0x00 (0000ms, 0559ms total)
T82F8 015:762 JLINK_WriteReg(R10, 0x00000000)  returns 0x00 (0000ms, 0559ms total)
T82F8 015:762 JLINK_WriteReg(R11, 0x00000000)  returns 0x00 (0000ms, 0559ms total)
T82F8 015:762 JLINK_WriteReg(R12, 0x00000000)  returns 0x00 (0000ms, 0559ms total)
T82F8 015:762 JLINK_WriteReg(R13 (SP), 0x20001000)  returns 0x00 (0000ms, 0559ms total)
T82F8 015:762 JLINK_WriteReg(R14, 0x20000001)  returns 0x00 (0000ms, 0559ms total)
T82F8 015:762 JLINK_WriteReg(R15 (PC), 0x200000A4)  returns 0x00 (0000ms, 0559ms total)
T82F8 015:762 JLINK_WriteReg(XPSR, 0x01000000)  returns 0x00 (0000ms, 0559ms total)
T82F8 015:762 JLINK_WriteReg(MSP, 0x20001000)  returns 0x00 (0000ms, 0559ms total)
T82F8 015:762 JLINK_WriteReg(PSP, 0x20001000)  returns 0x00 (0000ms, 0559ms total)
T82F8 015:762 JLINK_WriteReg(CFBP, 0x00000000)  returns 0x00 (0000ms, 0559ms total)
T82F8 015:762 JLINK_SetBPEx(Addr = 0x20000000, Type = 0xFFFFFFF2)  returns 0x0000000B (0000ms, 0559ms total)
T82F8 015:762 JLINK_Go() -- CPU_ReadMem(4 bytes @ 0xE0001000) (0005ms, 0564ms total)
T82F8 015:767 JLINK_IsHalted()  returns FALSE (0001ms, 0565ms total)
T82F8 015:771 JLINK_IsHalted() -- CPU_ReadMem(2 bytes @ 0x20000000)  returns TRUE (0005ms, 0569ms total)
T82F8 015:777 JLINK_ReadReg(R15 (PC))  returns 0x20000000 (0000ms, 0564ms total)
T82F8 015:777 JLINK_ClrBPEx(BPHandle = 0x0000000B)  returns 0x00 (0000ms, 0564ms total)
T82F8 015:777 JLINK_ReadReg(R0)  returns 0x00000000 (0000ms, 0564ms total)
T82F8 015:777 JLINK_WriteMem(0x20000128, 0x0100 Bytes, ...) - Data: 20 3A C0 F0 0B 80 B1 E8 18 50 20 3A A0 E8 18 50 ... -- CPU_WriteMem(256 bytes @ 0x20000128)  returns 0x100 (0002ms, 0566ms total)
T82F8 015:779 JLINK_WriteReg(R0, 0x08000500)  returns 0x00 (0000ms, 0566ms total)
T82F8 015:779 JLINK_WriteReg(R1, 0x00000100)  returns 0x00 (0000ms, 0566ms total)
T82F8 015:779 JLINK_WriteReg(R2, 0x20000128)  returns 0x00 (0001ms, 0567ms total)
T82F8 015:780 JLINK_WriteReg(R3, 0x00000000)  returns 0x00 (0000ms, 0567ms total)
T82F8 015:780 JLINK_WriteReg(R4, 0x00000000)  returns 0x00 (0000ms, 0567ms total)
T82F8 015:780 JLINK_WriteReg(R5, 0x00000000)  returns 0x00 (0000ms, 0567ms total)
T82F8 015:780 JLINK_WriteReg(R6, 0x00000000)  returns 0x00 (0000ms, 0567ms total)
T82F8 015:780 JLINK_WriteReg(R7, 0x00000000)  returns 0x00 (0000ms, 0567ms total)
T82F8 015:780 JLINK_WriteReg(R8, 0x00000000)  returns 0x00 (0000ms, 0567ms total)
T82F8 015:780 JLINK_WriteReg(R9, 0x20000124)  returns 0x00 (0000ms, 0567ms total)
T82F8 015:780 JLINK_WriteReg(R10, 0x00000000)  returns 0x00 (0000ms, 0567ms total)
T82F8 015:780 JLINK_WriteReg(R11, 0x00000000)  returns 0x00 (0000ms, 0567ms total)
T82F8 015:780 JLINK_WriteReg(R12, 0x00000000)  returns 0x00 (0000ms, 0567ms total)
T82F8 015:780 JLINK_WriteReg(R13 (SP), 0x20001000)  returns 0x00 (0000ms, 0567ms total)
T82F8 015:780 JLINK_WriteReg(R14, 0x20000001)  returns 0x00 (0000ms, 0567ms total)
T82F8 015:780 JLINK_WriteReg(R15 (PC), 0x200000A4)  returns 0x00 (0000ms, 0567ms total)
T82F8 015:780 JLINK_WriteReg(XPSR, 0x01000000)  returns 0x00 (0000ms, 0567ms total)
T82F8 015:780 JLINK_WriteReg(MSP, 0x20001000)  returns 0x00 (0000ms, 0567ms total)
T82F8 015:780 JLINK_WriteReg(PSP, 0x20001000)  returns 0x00 (0000ms, 0567ms total)
T82F8 015:780 JLINK_WriteReg(CFBP, 0x00000000)  returns 0x00 (0000ms, 0567ms total)
T82F8 015:780 JLINK_SetBPEx(Addr = 0x20000000, Type = 0xFFFFFFF2)  returns 0x0000000C (0000ms, 0567ms total)
T82F8 015:780 JLINK_Go() -- CPU_ReadMem(4 bytes @ 0xE0001000) (0004ms, 0571ms total)
T82F8 015:784 JLINK_IsHalted()  returns FALSE (0002ms, 0573ms total)
T82F8 015:787 JLINK_IsHalted()  returns FALSE (0001ms, 0572ms total)
T82F8 015:789 JLINK_IsHalted() -- CPU_ReadMem(2 bytes @ 0x20000000)  returns TRUE (0005ms, 0576ms total)
T82F8 015:794 JLINK_ReadReg(R15 (PC))  returns 0x20000000 (0000ms, 0571ms total)
T82F8 015:794 JLINK_ClrBPEx(BPHandle = 0x0000000C)  returns 0x00 (0000ms, 0571ms total)
T82F8 015:794 JLINK_ReadReg(R0)  returns 0x00000000 (0000ms, 0571ms total)
T82F8 015:795 JLINK_WriteMem(0x20000128, 0x0100 Bytes, ...) - Data: 44 BF B3 46 00 26 20 2F A4 BF 5E 46 4F F0 00 0B ... -- CPU_WriteMem(256 bytes @ 0x20000128)  returns 0x100 (0002ms, 0573ms total)
T82F8 015:797 JLINK_WriteReg(R0, 0x08000600)  returns 0x00 (0000ms, 0573ms total)
T82F8 015:797 JLINK_WriteReg(R1, 0x00000100)  returns 0x00 (0000ms, 0573ms total)
T82F8 015:797 JLINK_WriteReg(R2, 0x20000128)  returns 0x00 (0000ms, 0573ms total)
T82F8 015:797 JLINK_WriteReg(R3, 0x00000000)  returns 0x00 (0000ms, 0573ms total)
T82F8 015:797 JLINK_WriteReg(R4, 0x00000000)  returns 0x00 (0000ms, 0573ms total)
T82F8 015:797 JLINK_WriteReg(R5, 0x00000000)  returns 0x00 (0000ms, 0573ms total)
T82F8 015:797 JLINK_WriteReg(R6, 0x00000000)  returns 0x00 (0000ms, 0573ms total)
T82F8 015:797 JLINK_WriteReg(R7, 0x00000000)  returns 0x00 (0000ms, 0573ms total)
T82F8 015:797 JLINK_WriteReg(R8, 0x00000000)  returns 0x00 (0000ms, 0573ms total)
T82F8 015:797 JLINK_WriteReg(R9, 0x20000124)  returns 0x00 (0000ms, 0573ms total)
T82F8 015:797 JLINK_WriteReg(R10, 0x00000000)  returns 0x00 (0000ms, 0573ms total)
T82F8 015:797 JLINK_WriteReg(R11, 0x00000000)  returns 0x00 (0000ms, 0573ms total)
T82F8 015:797 JLINK_WriteReg(R12, 0x00000000)  returns 0x00 (0000ms, 0573ms total)
T82F8 015:797 JLINK_WriteReg(R13 (SP), 0x20001000)  returns 0x00 (0000ms, 0573ms total)
T82F8 015:797 JLINK_WriteReg(R14, 0x20000001)  returns 0x00 (0000ms, 0573ms total)
T82F8 015:797 JLINK_WriteReg(R15 (PC), 0x200000A4)  returns 0x00 (0000ms, 0573ms total)
T82F8 015:797 JLINK_WriteReg(XPSR, 0x01000000)  returns 0x00 (0000ms, 0573ms total)
T82F8 015:797 JLINK_WriteReg(MSP, 0x20001000)  returns 0x00 (0000ms, 0573ms total)
T82F8 015:797 JLINK_WriteReg(PSP, 0x20001000)  returns 0x00 (0000ms, 0573ms total)
T82F8 015:797 JLINK_WriteReg(CFBP, 0x00000000)  returns 0x00 (0000ms, 0573ms total)
T82F8 015:797 JLINK_SetBPEx(Addr = 0x20000000, Type = 0xFFFFFFF2)  returns 0x0000000D (0000ms, 0573ms total)
T82F8 015:797 JLINK_Go() -- CPU_ReadMem(4 bytes @ 0xE0001000) (0006ms, 0579ms total)
T82F8 015:804 JLINK_IsHalted()  returns FALSE (0001ms, 0580ms total)
T82F8 015:806 JLINK_IsHalted()  returns FALSE (0001ms, 0580ms total)
T82F8 015:808 JLINK_IsHalted() -- CPU_ReadMem(2 bytes @ 0x20000000)  returns TRUE (0006ms, 0585ms total)
T82F8 015:814 JLINK_ReadReg(R15 (PC))  returns 0x20000000 (0000ms, 0579ms total)
T82F8 015:814 JLINK_ClrBPEx(BPHandle = 0x0000000D)  returns 0x00 (0000ms, 0579ms total)
T82F8 015:814 JLINK_ReadReg(R0)  returns 0x00000000 (0000ms, 0579ms total)
T82F8 015:814 JLINK_WriteMem(0x20000128, 0x0100 Bytes, ...) - Data: 04 F2 C4 F1 0A 0C B2 FB F1 F0 B0 FA 80 F3 9C 45 ... -- CPU_WriteMem(256 bytes @ 0x20000128)  returns 0x100 (0003ms, 0582ms total)
T82F8 015:817 JLINK_WriteReg(R0, 0x08000700)  returns 0x00 (0000ms, 0582ms total)
T82F8 015:817 JLINK_WriteReg(R1, 0x00000100)  returns 0x00 (0000ms, 0582ms total)
T82F8 015:817 JLINK_WriteReg(R2, 0x20000128)  returns 0x00 (0000ms, 0582ms total)
T82F8 015:817 JLINK_WriteReg(R3, 0x00000000)  returns 0x00 (0000ms, 0582ms total)
T82F8 015:817 JLINK_WriteReg(R4, 0x00000000)  returns 0x00 (0000ms, 0582ms total)
T82F8 015:817 JLINK_WriteReg(R5, 0x00000000)  returns 0x00 (0000ms, 0582ms total)
T82F8 015:817 JLINK_WriteReg(R6, 0x00000000)  returns 0x00 (0000ms, 0582ms total)
T82F8 015:817 JLINK_WriteReg(R7, 0x00000000)  returns 0x00 (0000ms, 0582ms total)
T82F8 015:817 JLINK_WriteReg(R8, 0x00000000)  returns 0x00 (0000ms, 0582ms total)
T82F8 015:817 JLINK_WriteReg(R9, 0x20000124)  returns 0x00 (0000ms, 0582ms total)
T82F8 015:817 JLINK_WriteReg(R10, 0x00000000)  returns 0x00 (0000ms, 0582ms total)
T82F8 015:817 JLINK_WriteReg(R11, 0x00000000)  returns 0x00 (0000ms, 0582ms total)
T82F8 015:817 JLINK_WriteReg(R12, 0x00000000)  returns 0x00 (0000ms, 0582ms total)
T82F8 015:817 JLINK_WriteReg(R13 (SP), 0x20001000)  returns 0x00 (0000ms, 0582ms total)
T82F8 015:817 JLINK_WriteReg(R14, 0x20000001)  returns 0x00 (0000ms, 0582ms total)
T82F8 015:817 JLINK_WriteReg(R15 (PC), 0x200000A4)  returns 0x00 (0000ms, 0582ms total)
T82F8 015:817 JLINK_WriteReg(XPSR, 0x01000000)  returns 0x00 (0000ms, 0582ms total)
T82F8 015:817 JLINK_WriteReg(MSP, 0x20001000)  returns 0x00 (0000ms, 0582ms total)
T82F8 015:817 JLINK_WriteReg(PSP, 0x20001000)  returns 0x00 (0000ms, 0582ms total)
T82F8 015:817 JLINK_WriteReg(CFBP, 0x00000000)  returns 0x00 (0000ms, 0582ms total)
T82F8 015:817 JLINK_SetBPEx(Addr = 0x20000000, Type = 0xFFFFFFF2)  returns 0x0000000E (0000ms, 0582ms total)
T82F8 015:817 JLINK_Go() -- CPU_ReadMem(4 bytes @ 0xE0001000) (0005ms, 0587ms total)
T82F8 015:822 JLINK_IsHalted()  returns FALSE (0001ms, 0588ms total)
T82F8 015:826 JLINK_IsHalted() -- CPU_ReadMem(2 bytes @ 0x20000000)  returns TRUE (0005ms, 0592ms total)
T82F8 015:832 JLINK_ReadReg(R15 (PC))  returns 0x20000000 (0000ms, 0587ms total)
T82F8 015:832 JLINK_ClrBPEx(BPHandle = 0x0000000E)  returns 0x00 (0000ms, 0587ms total)
T82F8 015:832 JLINK_ReadReg(R0)  returns 0x00000000 (0000ms, 0587ms total)
T82F8 015:832 JLINK_WriteMem(0x20000128, 0x0100 Bytes, ...) - Data: B0 FA 80 F4 14 2C A8 BF 14 24 00 FA 04 F2 C4 F1 ... -- CPU_WriteMem(256 bytes @ 0x20000128)  returns 0x100 (0003ms, 0590ms total)
T82F8 015:835 JLINK_WriteReg(R0, 0x08000800)  returns 0x00 (0000ms, 0590ms total)
T82F8 015:835 JLINK_WriteReg(R1, 0x00000100)  returns 0x00 (0000ms, 0590ms total)
T82F8 015:835 JLINK_WriteReg(R2, 0x20000128)  returns 0x00 (0000ms, 0590ms total)
T82F8 015:835 JLINK_WriteReg(R3, 0x00000000)  returns 0x00 (0000ms, 0590ms total)
T82F8 015:835 JLINK_WriteReg(R4, 0x00000000)  returns 0x00 (0000ms, 0590ms total)
T82F8 015:835 JLINK_WriteReg(R5, 0x00000000)  returns 0x00 (0000ms, 0590ms total)
T82F8 015:835 JLINK_WriteReg(R6, 0x00000000)  returns 0x00 (0000ms, 0590ms total)
T82F8 015:835 JLINK_WriteReg(R7, 0x00000000)  returns 0x00 (0000ms, 0590ms total)
T82F8 015:835 JLINK_WriteReg(R8, 0x00000000)  returns 0x00 (0000ms, 0590ms total)
T82F8 015:835 JLINK_WriteReg(R9, 0x20000124)  returns 0x00 (0000ms, 0590ms total)
T82F8 015:835 JLINK_WriteReg(R10, 0x00000000)  returns 0x00 (0000ms, 0590ms total)
T82F8 015:835 JLINK_WriteReg(R11, 0x00000000)  returns 0x00 (0000ms, 0590ms total)
T82F8 015:835 JLINK_WriteReg(R12, 0x00000000)  returns 0x00 (0000ms, 0590ms total)
T82F8 015:835 JLINK_WriteReg(R13 (SP), 0x20001000)  returns 0x00 (0000ms, 0590ms total)
T82F8 015:835 JLINK_WriteReg(R14, 0x20000001)  returns 0x00 (0000ms, 0590ms total)
T82F8 015:835 JLINK_WriteReg(R15 (PC), 0x200000A4)  returns 0x00 (0000ms, 0590ms total)
T82F8 015:835 JLINK_WriteReg(XPSR, 0x01000000)  returns 0x00 (0000ms, 0590ms total)
T82F8 015:835 JLINK_WriteReg(MSP, 0x20001000)  returns 0x00 (0000ms, 0590ms total)
T82F8 015:835 JLINK_WriteReg(PSP, 0x20001000)  returns 0x00 (0000ms, 0590ms total)
T82F8 015:835 JLINK_WriteReg(CFBP, 0x00000000)  returns 0x00 (0000ms, 0590ms total)
T82F8 015:835 JLINK_SetBPEx(Addr = 0x20000000, Type = 0xFFFFFFF2)  returns 0x0000000F (0000ms, 0590ms total)
T82F8 015:835 JLINK_Go() -- CPU_ReadMem(4 bytes @ 0xE0001000) (0004ms, 0594ms total)
T82F8 015:839 JLINK_IsHalted()  returns FALSE (0001ms, 0595ms total)
T82F8 015:842 JLINK_IsHalted()  returns FALSE (0001ms, 0595ms total)
T82F8 015:844 JLINK_IsHalted() -- CPU_ReadMem(2 bytes @ 0x20000000)  returns TRUE (0005ms, 0599ms total)
T82F8 015:849 JLINK_ReadReg(R15 (PC))  returns 0x20000000 (0000ms, 0594ms total)
T82F8 015:849 JLINK_ClrBPEx(BPHandle = 0x0000000F)  returns 0x00 (0000ms, 0594ms total)
T82F8 015:849 JLINK_ReadReg(R0)  returns 0x00000000 (0000ms, 0594ms total)
T82F8 015:850 JLINK_WriteMem(0x20000128, 0x0100 Bytes, ...) - Data: 41 FA EA 49 EB 48 06 F0 3D FA E8 49 EA 48 06 F0 ... -- CPU_WriteMem(256 bytes @ 0x20000128)  returns 0x100 (0002ms, 0596ms total)
T82F8 015:852 JLINK_WriteReg(R0, 0x08000900)  returns 0x00 (0000ms, 0596ms total)
T82F8 015:852 JLINK_WriteReg(R1, 0x00000100)  returns 0x00 (0000ms, 0596ms total)
T82F8 015:852 JLINK_WriteReg(R2, 0x20000128)  returns 0x00 (0000ms, 0596ms total)
T82F8 015:852 JLINK_WriteReg(R3, 0x00000000)  returns 0x00 (0000ms, 0596ms total)
T82F8 015:852 JLINK_WriteReg(R4, 0x00000000)  returns 0x00 (0000ms, 0596ms total)
T82F8 015:852 JLINK_WriteReg(R5, 0x00000000)  returns 0x00 (0000ms, 0596ms total)
T82F8 015:852 JLINK_WriteReg(R6, 0x00000000)  returns 0x00 (0000ms, 0596ms total)
T82F8 015:852 JLINK_WriteReg(R7, 0x00000000)  returns 0x00 (0000ms, 0596ms total)
T82F8 015:852 JLINK_WriteReg(R8, 0x00000000)  returns 0x00 (0000ms, 0596ms total)
T82F8 015:852 JLINK_WriteReg(R9, 0x20000124)  returns 0x00 (0000ms, 0596ms total)
T82F8 015:852 JLINK_WriteReg(R10, 0x00000000)  returns 0x00 (0000ms, 0596ms total)
T82F8 015:852 JLINK_WriteReg(R11, 0x00000000)  returns 0x00 (0000ms, 0596ms total)
T82F8 015:852 JLINK_WriteReg(R12, 0x00000000)  returns 0x00 (0000ms, 0596ms total)
T82F8 015:852 JLINK_WriteReg(R13 (SP), 0x20001000)  returns 0x00 (0000ms, 0596ms total)
T82F8 015:852 JLINK_WriteReg(R14, 0x20000001)  returns 0x00 (0001ms, 0597ms total)
T82F8 015:853 JLINK_WriteReg(R15 (PC), 0x200000A4)  returns 0x00 (0000ms, 0597ms total)
T82F8 015:853 JLINK_WriteReg(XPSR, 0x01000000)  returns 0x00 (0000ms, 0597ms total)
T82F8 015:853 JLINK_WriteReg(MSP, 0x20001000)  returns 0x00 (0000ms, 0597ms total)
T82F8 015:853 JLINK_WriteReg(PSP, 0x20001000)  returns 0x00 (0000ms, 0597ms total)
T82F8 015:853 JLINK_WriteReg(CFBP, 0x00000000)  returns 0x00 (0000ms, 0597ms total)
T82F8 015:853 JLINK_SetBPEx(Addr = 0x20000000, Type = 0xFFFFFFF2)  returns 0x00000010 (0000ms, 0597ms total)
T82F8 015:853 JLINK_Go() -- CPU_ReadMem(4 bytes @ 0xE0001000) (0004ms, 0601ms total)
T82F8 015:858 JLINK_IsHalted()  returns FALSE (0001ms, 0602ms total)
T82F8 015:860 JLINK_IsHalted()  returns FALSE (0001ms, 0602ms total)
T82F8 015:862 JLINK_IsHalted() -- CPU_ReadMem(2 bytes @ 0x20000000)  returns TRUE (0005ms, 0606ms total)
T82F8 015:867 JLINK_ReadReg(R15 (PC))  returns 0x20000000 (0000ms, 0601ms total)
T82F8 015:867 JLINK_ClrBPEx(BPHandle = 0x00000010)  returns 0x00 (0000ms, 0601ms total)
T82F8 015:867 JLINK_ReadReg(R0)  returns 0x00000000 (0000ms, 0601ms total)
T82F8 015:868 JLINK_WriteMem(0x20000128, 0x0100 Bytes, ...) - Data: 41 F2 11 11 A8 48 06 F0 85 F9 01 21 A8 48 06 F0 ... -- CPU_WriteMem(256 bytes @ 0x20000128)  returns 0x100 (0003ms, 0604ms total)
T82F8 015:871 JLINK_WriteReg(R0, 0x08000A00)  returns 0x00 (0000ms, 0604ms total)
T82F8 015:871 JLINK_WriteReg(R1, 0x00000100)  returns 0x00 (0000ms, 0604ms total)
T82F8 015:871 JLINK_WriteReg(R2, 0x20000128)  returns 0x00 (0000ms, 0604ms total)
T82F8 015:871 JLINK_WriteReg(R3, 0x00000000)  returns 0x00 (0000ms, 0604ms total)
T82F8 015:871 JLINK_WriteReg(R4, 0x00000000)  returns 0x00 (0000ms, 0604ms total)
T82F8 015:871 JLINK_WriteReg(R5, 0x00000000)  returns 0x00 (0000ms, 0604ms total)
T82F8 015:871 JLINK_WriteReg(R6, 0x00000000)  returns 0x00 (0000ms, 0604ms total)
T82F8 015:871 JLINK_WriteReg(R7, 0x00000000)  returns 0x00 (0000ms, 0604ms total)
T82F8 015:871 JLINK_WriteReg(R8, 0x00000000)  returns 0x00 (0000ms, 0604ms total)
T82F8 015:871 JLINK_WriteReg(R9, 0x20000124)  returns 0x00 (0000ms, 0604ms total)
T82F8 015:871 JLINK_WriteReg(R10, 0x00000000)  returns 0x00 (0000ms, 0604ms total)
T82F8 015:871 JLINK_WriteReg(R11, 0x00000000)  returns 0x00 (0000ms, 0604ms total)
T82F8 015:871 JLINK_WriteReg(R12, 0x00000000)  returns 0x00 (0000ms, 0604ms total)
T82F8 015:871 JLINK_WriteReg(R13 (SP), 0x20001000)  returns 0x00 (0000ms, 0604ms total)
T82F8 015:871 JLINK_WriteReg(R14, 0x20000001)  returns 0x00 (0000ms, 0604ms total)
T82F8 015:871 JLINK_WriteReg(R15 (PC), 0x200000A4)  returns 0x00 (0000ms, 0604ms total)
T82F8 015:871 JLINK_WriteReg(XPSR, 0x01000000)  returns 0x00 (0000ms, 0604ms total)
T82F8 015:871 JLINK_WriteReg(MSP, 0x20001000)  returns 0x00 (0000ms, 0604ms total)
T82F8 015:871 JLINK_WriteReg(PSP, 0x20001000)  returns 0x00 (0000ms, 0604ms total)
T82F8 015:871 JLINK_WriteReg(CFBP, 0x00000000)  returns 0x00 (0000ms, 0604ms total)
